Circuit: * C:\Users\user\OneDrive\Documentos\tarea\Circuito\sim2-w7\opamp-top.asc

Ignoring BSIM parameter XL
Ignoring BSIM parameter XW
Ignoring BSIM parameter XL
Ignoring BSIM parameter XW
Warning: Pd = 0 is less than W.
Warning: Ps = 0 is less than W.
Warning: Pd = 0 is less than W.
Warning: Ps = 0 is less than W.
Warning: Pd = 0 is less than W.
Warning: Ps = 0 is less than W.
Warning: Pd = 0 is less than W.
Warning: Ps = 0 is less than W.
Direct Newton iteration for .op point succeeded.
Semiconductor Device Operating Points:
                        --- BSIM3 MOSFETS ---
Name:      m:x1:1      m:x1:2      m:x1:7      m:x1:3      m:x1:4
Model:    x1:pmosc5   x1:pmosc5   x1:pmosc5   x1:nmosc5   x1:nmosc5
Id:       -2.51e-05   -2.51e-05   -9.19e-07    2.51e-05    2.51e-05
Vgs:      -1.06e+00   -1.06e+00   -1.06e+00    1.02e+00    1.02e+00
Vds:      -1.06e+00   -1.06e+00   -4.99e+00    2.47e+00    2.47e+00
Vbs:       0.00e+00    0.00e+00    0.00e+00   -1.48e+00   -1.48e+00
Vth:      -8.46e-01   -8.46e-01   -9.23e-01    8.11e-01    8.11e-01
Vdsat:    -1.97e-01   -1.97e-01   -1.35e-01    1.65e-01    1.65e-01
Gm:        2.20e-04    2.20e-04    1.08e-05    2.94e-04    2.94e-04
Gds:       8.17e-06    8.17e-06    2.41e-07    5.85e-06    5.85e-06
Gmb        4.72e-05    4.72e-05    2.68e-06    2.74e-05    2.74e-05
Cbd:       0.00e+00    0.00e+00    0.00e+00    0.00e+00    0.00e+00
Cbs:       0.00e+00    0.00e+00    0.00e+00    0.00e+00    0.00e+00
Cgsov:     2.74e-15    2.74e-15    1.25e-16    9.01e-16    9.01e-16
Cgdov:     2.74e-15    2.74e-15    1.25e-16    9.01e-16    9.01e-16
Cgbov:     3.89e-16    3.89e-16    3.89e-16    4.28e-16    4.28e-16
dQgdVgb:   1.32e-14    1.32e-14    9.72e-16    6.06e-15    6.06e-15
dQgdVdb:  -2.67e-15   -2.67e-15   -1.23e-16   -8.50e-16   -8.50e-16
dQgdVsb:  -9.22e-15   -9.22e-15   -4.21e-16   -3.98e-15   -3.98e-15
dQddVgb:  -5.77e-15   -5.77e-15   -2.61e-16   -2.50e-15   -2.50e-15
dQddVdb:   2.70e-15    2.70e-15    1.24e-16    8.72e-16    8.72e-16
dQddVsb:   3.76e-15    3.76e-15    1.72e-16    1.78e-15    1.78e-15
dQbdVgb:  -1.67e-15   -1.67e-15   -4.51e-16   -1.07e-15   -1.07e-15
dQbdVdb:   9.93e-18    9.93e-18    4.64e-19    8.20e-18    8.20e-18
dQbdVsb:  -1.04e-15   -1.04e-15   -4.81e-17   -4.86e-16   -4.86e-16

Name:      m:x1:5      m:x1:6      m:x1:8
Model:    x1:nmosc5   x1:nmosc5   x1:nmosc5
Id:        4.50e-05    5.01e-05    3.41e-06
Vgs:       9.09e-01    9.09e-01    9.09e-01
Vds:       9.09e-01    1.48e+00    1.07e-02
Vbs:       0.00e+00    0.00e+00    0.00e+00
Vth:       6.08e-01    5.99e-01    6.10e-01
Vdsat:     2.01e-01    2.07e-01    2.02e-01
Gm:        3.35e-04    3.56e-04    1.48e-05
Gds:       1.05e-05    8.19e-06    3.11e-04
Gmb        7.45e-05    7.88e-05    3.55e-06
Cbd:       0.00e+00    0.00e+00    0.00e+00
Cbs:       0.00e+00    0.00e+00    0.00e+00
Cgsov:     9.01e-16    9.01e-16    1.06e-15
Cgdov:     9.01e-16    9.01e-16    1.06e-15
Cgbov:     4.28e-16    4.28e-16    4.28e-16
dQgdVgb:   6.18e-15    6.18e-15    8.21e-15
dQgdVdb:  -8.60e-16   -8.60e-16   -3.43e-15
dQgdVsb:  -4.03e-15   -4.03e-15   -3.56e-15
dQddVgb:  -2.50e-15   -2.50e-15   -3.88e-15
dQddVdb:   8.75e-16    8.74e-16    3.26e-15
dQddVsb:   2.03e-15    2.03e-15    1.33e-15
dQbdVgb:  -1.18e-15   -1.18e-15   -4.59e-16
dQbdVdb:   1.23e-17    1.30e-17   -2.03e-15
dQbdVsb:  -9.27e-16   -9.30e-16   -1.64e-16



Date: Wed Oct  4 00:02:38 2023
Total elapsed time: 0.339 seconds.

tnom = 27
temp = 27
method = trap
totiter = 16
traniter = 0
tranpoints = 0
accept = 0
rejected = 0
matrix size = 10
fillins = 12
solver = Normal
Avg thread counts: 16.0/0.0/16.0/16.0
Matrix Compiler1: 1.56 KB object code size
Matrix Compiler2: 1.19 KB object code size
